T3F24 000:012.991   SEGGER J-Link V6.70e Log File
T3F24 000:013.174   DLL Compiled: Apr 17 2020 17:55:05
T3F24 000:013.185   Logging started @ 2023-09-17 12:53
T3F24 000:013.198 JLINK_SetWarnOutHandler(...)
T3F24 000:013.211 - 0.017ms
T3F24 000:013.226 JLINK_OpenEx(...)
T3F24 000:015.052   Firmware: J-Link V9 compiled May  7 2021 16:26:12
T3F24 000:015.285   Decompressing FW timestamp took 187 us
T3F24 000:022.678   Hardware: V9.60
T3F24 000:022.736   S/N: 69665746
T3F24 000:022.754   OEM: SEGGER
T3F24 000:022.767   Feature(s): RDI, GDB, FlashDL, FlashBP, JFlash
T3F24 000:024.245   TELNET listener socket opened on port 19021
T3F24 000:024.449   WEBSRV Starting webserver
T3F24 000:024.597   WEBSRV Webserver running on local port 19080
T3F24 000:024.629 - 11.408ms returns "O.K."
T3F24 000:024.661 JLINK_GetEmuCaps()
T3F24 000:024.683 - 0.030ms returns 0xB9FF7BBF
T3F24 000:024.715 JLINK_TIF_GetAvailable(...)
T3F24 000:025.058 - 0.357ms
T3F24 000:025.086 JLINK_SetErrorOutHandler(...)
T3F24 000:025.125 - 0.045ms
T3F24 000:025.169 JLINK_ExecCommand("ProjectFile = "C:\Users\sargoli.h\Dropbox\Timer\2\JLinkSettings.ini"", ...). 
T3F24 000:034.555   Ref file found at: C:\Keil_v5\ARM\Segger\JLinkDevices.ref
T3F24 000:034.688   XML referenced by ref file: C:\Program Files (x86)\SEGGER\JLink\JLinkDevices.xml
T3F24 000:035.797   C:\Program Files (x86)\SEGGER\JLink\JLinkDevices.xml evaluated successfully.
T3F24 000:083.718 - 58.576ms returns 0x00
T3F24 000:083.784 JLINK_ExecCommand("Device = STM32F407ZGTx", ...). 
T3F24 000:084.389   Device "STM32F407ZG" selected.
T3F24 000:084.731 - 0.934ms returns 0x00
T3F24 000:084.750 JLINK_ExecCommand("DisableConnectionTimeout", ...). 
T3F24 000:084.767 - 0.009ms returns 0x01
T3F24 000:084.779 JLINK_GetHardwareVersion()
T3F24 000:084.788 - 0.013ms returns 0x17700
T3F24 000:084.800 JLINK_GetDLLVersion()  returns 67005
T3F24 000:084.818 JLINK_GetFirmwareString(...)
T3F24 000:084.828 - 0.014ms
T3F24 000:084.859 JLINK_GetDLLVersion()  returns 67005
T3F24 000:084.873 JLINK_GetCompileDateTime()
T3F24 000:084.882 - 0.013ms
T3F24 000:084.902 JLINK_GetFirmwareString(...)
T3F24 000:084.912 - 0.015ms
T3F24 000:084.930 JLINK_GetHardwareVersion()
T3F24 000:084.940 - 0.014ms returns 0x17700
T3F24 000:084.980 JLINK_TIF_Select(JLINKARM_TIF_JTAG)
T3F24 000:086.676 - 1.711ms returns 0x00
T3F24 000:086.717 JLINK_SetSpeed(5000)
T3F24 000:087.042 - 0.339ms
T3F24 000:087.098 JLINK_GetIdData(pIdData)
T3F24 000:089.068   TotalIRLen = 9, IRPrint = 0x0011
T3F24 000:089.807   JTAG chain detection found 2 devices:
T3F24 000:089.836    #0 Id: 0x4BA00477, IRLen: 04, CoreSight JTAG-DP
T3F24 000:089.858    #1 Id: 0x06413041, IRLen: 05, STM32 Boundary Scan
T3F24 000:097.950   TotalIRLen = 9, IRPrint = 0x0011
T3F24 000:098.835   JTAG chain detection found 2 devices:
T3F24 000:098.863    #0 Id: 0x4BA00477, IRLen: 04, CoreSight JTAG-DP
T3F24 000:098.885    #1 Id: 0x06413041, IRLen: 05, STM32 Boundary Scan
T3F24 000:100.933   Cannot determine DP version. Assuming DPv0
T3F24 000:100.968   Scanning AP map to find all available APs
T3F24 000:101.826   AP[1]: Stopped AP scan as end of AP map has been reached
T3F24 000:101.855   AP[0]: AHB-AP (IDR: 0x24770011)
T3F24 000:101.880   Iterating through AP map to find AHB-AP to use
T3F24 000:102.938   AP[0]: Core found
T3F24 000:102.966   AP[0]: AHB-AP ROM base: 0xE00FF000
T3F24 000:103.564   CPUID register: 0x410FC241. Implementer code: 0x41 (ARM)
T3F24 000:103.592   Found Cortex-M4 r0p1, Little endian.
T3F24 000:104.176    -- Max. mem block: 0x00010C40
T3F24 000:104.211   CPU_ReadMem(4 bytes @ 0xE000EDF0)
T3F24 000:105.674   CPU_WriteMem(4 bytes @ 0xE000EDF0)
T3F24 000:106.043   CPU_ReadMem(4 bytes @ 0xE0002000)
T3F24 000:106.437   FPUnit: 6 code (BP) slots and 2 literal slots
T3F24 000:106.462   CPU_ReadMem(4 bytes @ 0xE000EDFC)
T3F24 000:106.925   CPU_WriteMem(4 bytes @ 0xE000EDFC)
T3F24 000:107.422   CPU_ReadMem(4 bytes @ 0xE0001000)
T3F24 000:107.794   CPU_WriteMem(4 bytes @ 0xE0001000)
T3F24 000:108.172   CPU_ReadMem(4 bytes @ 0xE000ED88)
T3F24 000:108.673   CPU_WriteMem(4 bytes @ 0xE000ED88)
T3F24 000:109.044   CPU_ReadMem(4 bytes @ 0xE000ED88)
T3F24 000:109.440   CPU_WriteMem(4 bytes @ 0xE000ED88)
T3F24 000:109.937   CoreSight components:
T3F24 000:109.970   ROMTbl[0] @ E00FF000
T3F24 000:109.987   CPU_ReadMem(64 bytes @ 0xE00FF000)
T3F24 000:110.796   CPU_ReadMem(32 bytes @ 0xE000EFE0)
T3F24 000:111.315   ROMTbl[0][0]: E000E000, CID: B105E00D, PID: 000BB00C SCS-M7
T3F24 000:111.336   CPU_ReadMem(32 bytes @ 0xE0001FE0)
T3F24 000:111.934   ROMTbl[0][1]: E0001000, CID: B105E00D, PID: 003BB002 DWT
T3F24 000:111.955   CPU_ReadMem(32 bytes @ 0xE0002FE0)
T3F24 000:112.682   ROMTbl[0][2]: E0002000, CID: B105E00D, PID: 002BB003 FPB
T3F24 000:112.703   CPU_ReadMem(32 bytes @ 0xE0000FE0)
T3F24 000:113.310   ROMTbl[0][3]: E0000000, CID: B105E00D, PID: 003BB001 ITM
T3F24 000:113.331   CPU_ReadMem(32 bytes @ 0xE0040FE0)
T3F24 000:113.935   ROMTbl[0][4]: E0040000, CID: B105900D, PID: 000BB9A1 TPIU
T3F24 000:113.956   CPU_ReadMem(32 bytes @ 0xE0041FE0)
T3F24 000:114.682   ROMTbl[0][5]: E0041000, CID: B105900D, PID: 000BB925 ETM
T3F24 000:114.739   pIdData->ScanLen=9
T3F24 000:114.755   
T3F24 000:114.763   pIdData->NumDevices=2
T3F24 000:114.776   
T3F24 000:114.785   pIdData->aId[0]=0x4BA00477
T3F24 000:114.797   
T3F24 000:114.806   pIdData->aIrRead[0]=0
T3F24 000:114.818   
T3F24 000:114.827   pIdData->aScanLen[0]=0
T3F24 000:114.839   
T3F24 000:114.848   pIdData->aScanRead[0]=0
T3F24 000:114.860   
T3F24 000:114.868 - 27.775ms
T3F24 000:114.889 JLINK_JTAG_GetDeviceID(DeviceIndex = 0)
T3F24 000:114.900 - 0.015ms returns 0x4BA00477
T3F24 000:114.914 JLINK_JTAG_GetDeviceInfo(DeviceIndex = 0)
T3F24 000:114.923 - 0.014ms returns 0x00
T3F24 000:114.936 JLINK_JTAG_GetDeviceID(DeviceIndex = 1)
T3F24 000:114.946 - 0.014ms returns 0x6413041
T3F24 000:114.959 JLINK_JTAG_GetDeviceInfo(DeviceIndex = 1)
T3F24 000:114.968 - 0.013ms returns 0x00
T3F24 000:114.983 JLINK_GetDLLVersion()  returns 67005
T3F24 000:114.996 JLINK_CORE_GetFound()
T3F24 000:115.006 - 0.013ms returns 0xE0000FF
T3F24 000:115.019 JLINK_GetDebugInfo(0x100 = JLINKARM_ROM_TABLE_ADDR_INDEX)
T3F24 000:115.032   Value=0xE00FF000
T3F24 000:115.045 - 0.031ms returns 0x00
T3F24 000:115.105 JLINK_GetDebugInfo(0x100 = JLINKARM_ROM_TABLE_ADDR_INDEX)
T3F24 000:115.121   Value=0xE00FF000
T3F24 000:115.134 - 0.033ms returns 0x00
T3F24 000:115.146 JLINK_GetDebugInfo(0x101 = JLINKARM_DEBUG_INFO_ETM_ADDR_INDEX)
T3F24 000:115.155   Value=0xE0041000
T3F24 000:115.168 - 0.027ms returns 0x00
T3F24 000:115.181   JLINK_ReadMemEx(0xE0041FD0, 0x0020 Bytes, ..., Flags = 0x02000004)
T3F24 000:115.216   CPU_ReadMem(32 bytes @ 0xE0041FD0)
T3F24 000:115.805   Data:  04 00 00 00 00 00 00 00 00 00 00 00 00 00 00 00 ...
T3F24 000:115.824 - 0.649ms returns 0x20
T3F24 000:115.838 JLINK_GetDebugInfo(0x102 = JLINKARM_DEBUG_INFO_MTB_ADDR_INDEX)
T3F24 000:115.848   Value=0x00000000
T3F24 000:115.861 - 0.027ms returns 0x00
T3F24 000:115.872 JLINK_GetDebugInfo(0x103 = JLINKARM_DEBUG_INFO_TPIU_ADDR_INDEX)
T3F24 000:115.882   Value=0xE0040000
T3F24 000:115.895 - 0.026ms returns 0x00
T3F24 000:115.906 JLINK_GetDebugInfo(0x104 = JLINKARM_DEBUG_INFO_ITM_ADDR_INDEX)
T3F24 000:115.915   Value=0xE0000000
T3F24 000:115.928 - 0.026ms returns 0x00
T3F24 000:115.939 JLINK_GetDebugInfo(0x105 = JLINKARM_DEBUG_INFO_DWT_ADDR_INDEX)
T3F24 000:115.948   Value=0xE0001000
T3F24 000:115.960 - 0.026ms returns 0x00
T3F24 000:115.971 JLINK_GetDebugInfo(0x106 = JLINKARM_DEBUG_INFO_FPB_ADDR_INDEX)
T3F24 000:115.981   Value=0xE0002000
T3F24 000:115.997 - 0.030ms returns 0x00
T3F24 000:116.009 JLINK_GetDebugInfo(0x107 = JLINKARM_DEBUG_INFO_NVIC_ADDR_INDEX)
T3F24 000:116.018   Value=0xE000E000
T3F24 000:116.031 - 0.026ms returns 0x00
T3F24 000:116.042 JLINK_GetDebugInfo(0x10C = JLINKARM_DEBUG_INFO_DBG_ADDR_INDEX)
T3F24 000:116.051   Value=0xE000EDF0
T3F24 000:116.064 - 0.026ms returns 0x00
T3F24 000:116.075 JLINK_GetDebugInfo(0x01 = Unknown)
T3F24 000:116.088   Value=0x00000001
T3F24 000:116.101 - 0.033ms returns 0x00
T3F24 000:116.120 JLINK_ReadMemU32(0xE000ED00, 0x0001 Items, ...)
T3F24 000:116.137   CPU_ReadMem(4 bytes @ 0xE000ED00)
T3F24 000:116.673   Data:  41 C2 0F 41
T3F24 000:116.697    - CPUID
T3F24 000:116.710 - 0.594ms returns 1
T3F24 000:116.724 JLINK_GetDebugInfo(0x10F = JLINKARM_DEBUG_INFO_HAS_CORTEX_M_SECURITY_EXT_INDEX)
T3F24 000:116.734   Value=0x00000000
T3F24 000:116.747 - 0.027ms returns 0x00
T3F24 000:116.761 JLINK_SetResetType(JLINKARM_CM3_RESET_TYPE_NORMAL)
T3F24 000:116.771 - 0.014ms returns JLINKARM_CM3_RESET_TYPE_NORMAL
T3F24 000:116.782 JLINK_Reset()
T3F24 000:116.805   CPU is running
T3F24 000:116.822   CPU_WriteMem(4 bytes @ 0xE000EDF0)
T3F24 000:117.294   CPU is running
T3F24 000:117.315   CPU_WriteMem(4 bytes @ 0xE000EDFC)
T3F24 000:117.809   Reset: Halt core after reset via DEMCR.VC_CORERESET.
T3F24 000:117.842   Reset: Reset device via AIRCR.SYSRESETREQ.
T3F24 000:117.858   CPU is running
T3F24 000:117.873   CPU_WriteMem(4 bytes @ 0xE000ED0C)
T3F24 000:170.836   CPU_ReadMem(4 bytes @ 0xE000EDF0)
T3F24 000:171.299   CPU_ReadMem(4 bytes @ 0xE000EDF0)
T3F24 000:171.673   CPU is running
T3F24 000:171.695   CPU_WriteMem(4 bytes @ 0xE000EDF0)
T3F24 000:172.169   CPU is running
T3F24 000:172.190   CPU_WriteMem(4 bytes @ 0xE000EDFC)
T3F24 000:177.830   CPU_ReadMem(4 bytes @ 0xE000EDF0)
T3F24 000:180.313   CPU_WriteMem(4 bytes @ 0xE000EDFC)
T3F24 000:180.798   CPU_WriteMem(4 bytes @ 0xE0001028)
T3F24 000:181.171   CPU_WriteMem(4 bytes @ 0xE0001038)
T3F24 000:181.673   CPU_WriteMem(4 bytes @ 0xE0001048)
T3F24 000:182.049   CPU_WriteMem(4 bytes @ 0xE0001058)
T3F24 000:182.671   CPU_WriteMem(4 bytes @ 0xE0002000)
T3F24 000:183.047   CPU_ReadMem(4 bytes @ 0xE000EDFC)
T3F24 000:183.421   CPU_ReadMem(4 bytes @ 0xE0001000)
T3F24 000:183.799 - 67.028ms
T3F24 000:183.870 JLINK_ReadReg(R15 (PC))
T3F24 000:183.889 - 0.024ms returns 0x0800020C
T3F24 000:183.902 JLINK_ReadReg(XPSR)
T3F24 000:183.913 - 0.016ms returns 0x01000000
T3F24 000:183.926 JLINK_Halt()
T3F24 000:183.935 - 0.014ms returns 0x00
T3F24 000:183.947 JLINK_ReadMemU32(0xE000EDF0, 0x0001 Items, ...)
T3F24 000:183.963   CPU_ReadMem(4 bytes @ 0xE000EDF0)
T3F24 000:184.422   Data:  03 00 03 00
T3F24 000:184.445    - DHCSR
T3F24 000:184.458 - 0.515ms returns 1
T3F24 000:184.472 JLINK_WriteU32(0xE000EDF0, 0xA05F0003)
T3F24 000:184.482    - DHCSR
T3F24 000:184.512   CPU_WriteMem(4 bytes @ 0xE000EDF0)
T3F24 000:184.921 - 0.460ms returns 0
T3F24 000:184.942 JLINK_WriteU32(0xE000EDFC, 0x01000000)
T3F24 000:184.952    - DEMCR
T3F24 000:184.973   CPU_WriteMem(4 bytes @ 0xE000EDFC)
T3F24 000:185.422 - 0.491ms returns 0
T3F24 000:185.473 JLINK_GetHWStatus(...)
T3F24 000:185.804 - 0.341ms returns 0x00
T3F24 000:185.858 JLINK_GetNumBPUnits(Type = 0xFFFFFF00)
T3F24 000:185.876 - 0.025ms returns 0x06
T3F24 000:185.894 JLINK_GetNumBPUnits(Type = 0xF0)
T3F24 000:185.907 - 0.019ms returns 0x2000
T3F24 000:185.922 JLINK_GetNumWPUnits()
T3F24 000:185.987 - 0.069ms returns 0x04
T3F24 000:186.019 JLINK_GetSpeed()
T3F24 000:186.030 - 0.015ms returns 0x1388
T3F24 000:186.051 JLINK_ReadMemU32(0xE000E004, 0x0001 Items, ...)
T3F24 000:186.068   CPU_ReadMem(4 bytes @ 0xE000E004)
T3F24 000:186.669   Data:  02 00 00 00
T3F24 000:186.689 - 0.642ms returns 1
T3F24 000:186.703 JLINK_ReadMemU32(0xE000E004, 0x0001 Items, ...)
T3F24 000:186.719   CPU_ReadMem(4 bytes @ 0xE000E004)
T3F24 000:187.173   Data:  02 00 00 00
T3F24 000:187.192 - 0.494ms returns 1
T3F24 000:187.206 JLINK_WriteMemEx(0xE0001000, 0x001C Bytes, ..., Flags = 0x02000004)
T3F24 000:187.217   Data:  01 00 00 00 00 00 00 00 00 00 00 00 00 00 00 00 ...
T3F24 000:187.594   CPU_WriteMem(28 bytes @ 0xE0001000)
T3F24 000:188.182 - 0.987ms returns 0x1C
T3F24 000:188.206 JLINK_ReadReg(R15 (PC))
T3F24 000:188.220 - 0.018ms returns 0x0800020C
T3F24 000:188.232 JLINK_ReadReg(XPSR)
T3F24 000:188.243 - 0.016ms returns 0x01000000
T3F24 000:209.774   JLINK_ReadMemEx(0xE0001004, 0x0004 Bytes, ..., Flags = 0x02000000)
T3F24 000:209.805   Data:  00 00 00 00
T3F24 000:209.826    - DWT_CYCCNT
T3F24 000:209.839 - 0.071ms returns 0x04
T3F24 000:270.857 JLINK_SetResetType(JLINKARM_CM3_RESET_TYPE_NORMAL)
T3F24 000:270.884 - 0.032ms returns JLINKARM_CM3_RESET_TYPE_NORMAL
T3F24 000:270.897 JLINK_Reset()
T3F24 000:270.923   CPU_WriteMem(4 bytes @ 0xE000EDF0)
T3F24 000:271.424   CPU_WriteMem(4 bytes @ 0xE000EDFC)
T3F24 000:271.813   Reset: Halt core after reset via DEMCR.VC_CORERESET.
T3F24 000:271.843   Reset: Reset device via AIRCR.SYSRESETREQ.
T3F24 000:271.859   CPU_WriteMem(4 bytes @ 0xE000ED0C)
T3F24 000:324.281   CPU_ReadMem(4 bytes @ 0xE000EDF0)
T3F24 000:324.935   CPU_ReadMem(4 bytes @ 0xE000EDF0)
T3F24 000:325.425   CPU_WriteMem(4 bytes @ 0xE000EDF0)
T3F24 000:325.920   CPU_WriteMem(4 bytes @ 0xE000EDFC)
T3F24 000:332.264   CPU_ReadMem(4 bytes @ 0xE000EDF0)
T3F24 000:334.694   CPU_WriteMem(4 bytes @ 0xE000EDFC)
T3F24 000:335.171   CPU_WriteMem(4 bytes @ 0xE0001028)
T3F24 000:335.673   CPU_WriteMem(4 bytes @ 0xE0001038)
T3F24 000:336.046   CPU_WriteMem(4 bytes @ 0xE0001048)
T3F24 000:336.424   CPU_WriteMem(4 bytes @ 0xE0001058)
T3F24 000:336.799   CPU_WriteMem(4 bytes @ 0xE0002000)
T3F24 000:337.294   CPU_ReadMem(4 bytes @ 0xE000EDFC)
T3F24 000:337.673   CPU_ReadMem(4 bytes @ 0xE0001000)
T3F24 000:338.047 - 67.161ms
T3F24 000:338.126 JLINK_ReadReg(R15 (PC))
T3F24 000:338.145 - 0.024ms returns 0x0800020C
T3F24 000:338.158 JLINK_ReadReg(XPSR)
T3F24 000:338.169 - 0.016ms returns 0x01000000
T3F24 000:566.664   JLINK_ReadMemEx(0x0800020C, 0x003C Bytes, ..., Flags = 0x02000000)
T3F24 000:566.710   CPU_ReadMem(128 bytes @ 0x08000200)
T3F24 000:568.181    -- Updating C cache (128 bytes @ 0x08000200)
T3F24 000:568.203    -- Read from C cache (60 bytes @ 0x0800020C)
T3F24 000:568.218   Data:  09 48 80 47 09 48 00 47 FE E7 FE E7 FE E7 FE E7 ...
T3F24 000:568.231 - 1.574ms returns 0x3C
T3F24 000:568.246   JLINK_ReadMemEx(0x0800020C, 0x0002 Bytes, ..., Flags = 0x02000000)
T3F24 000:568.262    -- Read from C cache (2 bytes @ 0x0800020C)
T3F24 000:568.275   Data:  09 48
T3F24 000:568.288 - 0.047ms returns 0x02
T3F24 000:568.382   JLINK_ReadMemEx(0x0800020E, 0x0002 Bytes, ..., Flags = 0x02000000)
T3F24 000:568.399    -- Read from C cache (2 bytes @ 0x0800020E)
T3F24 000:568.412   Data:  80 47
T3F24 000:568.425 - 0.048ms returns 0x02
T3F24 000:568.449   JLINK_ReadMemEx(0x0800020E, 0x0002 Bytes, ..., Flags = 0x02000000)
T3F24 000:568.464    -- Read from C cache (2 bytes @ 0x0800020E)
T3F24 000:568.477   Data:  80 47
T3F24 000:568.490 - 0.046ms returns 0x02
T3F24 000:568.502   JLINK_ReadMemEx(0x08000210, 0x003C Bytes, ..., Flags = 0x02000000)
T3F24 000:568.516    -- Read from C cache (60 bytes @ 0x08000210)
T3F24 000:568.530   Data:  09 48 00 47 FE E7 FE E7 FE E7 FE E7 FE E7 FE E7 ...
T3F24 000:568.542 - 0.045ms returns 0x3C
T3F24 000:568.554   JLINK_ReadMemEx(0x08000210, 0x0002 Bytes, ..., Flags = 0x02000000)
T3F24 000:568.568    -- Read from C cache (2 bytes @ 0x08000210)
T3F24 000:568.581   Data:  09 48
T3F24 000:568.594 - 0.044ms returns 0x02
T3F24 000:638.030   JLINK_ReadMemEx(0x40020400, 0x0014 Bytes, ..., Flags = 0x02000004)
T3F24 000:638.077   CPU_ReadMem(20 bytes @ 0x40020400)
T3F24 000:638.681   Data:  80 02 00 00 80 02 00 00 80 02 00 00 80 02 00 00 ...
T3F24 000:638.701 - 0.678ms returns 0x14
T3F24 000:638.719   JLINK_ReadMemEx(0x40020414, 0x0004 Bytes, ..., Flags = 0x02000004)
T3F24 000:638.739   CPU_ReadMem(4 bytes @ 0x40020414)
T3F24 000:639.173   Data:  80 02 00 00
T3F24 000:639.193 - 0.479ms returns 0x04
T3F24 000:639.209   JLINK_ReadMemEx(0x4002041C, 0x0008 Bytes, ..., Flags = 0x02000004)
T3F24 000:639.229   CPU_ReadMem(8 bytes @ 0x4002041C)
T3F24 000:639.803   Data:  80 02 00 00 80 02 00 00
T3F24 000:639.823 - 0.619ms returns 0x08
T3F24 000:639.839   JLINK_ReadMemEx(0x40020424, 0x0004 Bytes, ..., Flags = 0x02000004)
T3F24 000:639.858   CPU_ReadMem(4 bytes @ 0x40020424)
T3F24 000:640.304   Data:  80 02 00 00
T3F24 000:640.324 - 0.490ms returns 0x04
T3F24 000:703.958   JLINK_ReadMemEx(0x40023800, 0x0018 Bytes, ..., Flags = 0x02000004)
T3F24 000:704.071   CPU_ReadMem(24 bytes @ 0x40023800)
T3F24 000:704.675   Data:  83 70 00 00 10 30 00 24 00 00 00 00 00 00 00 00 ...
T3F24 000:704.699 - 0.747ms returns 0x18
T3F24 000:704.717   JLINK_ReadMemEx(0x40023818, 0x0004 Bytes, ..., Flags = 0x02000004)
T3F24 000:704.739   CPU_ReadMem(4 bytes @ 0x40023818)
T3F24 000:705.173   Data:  00 00 00 00
T3F24 000:705.193 - 0.482ms returns 0x04
T3F24 000:705.210   JLINK_ReadMemEx(0x40023820, 0x0004 Bytes, ..., Flags = 0x02000004)
T3F24 000:705.230   CPU_ReadMem(4 bytes @ 0x40023820)
T3F24 000:705.673   Data:  00 00 00 00
T3F24 000:705.692 - 0.488ms returns 0x04
T3F24 000:705.708   JLINK_ReadMemEx(0x40023824, 0x0004 Bytes, ..., Flags = 0x02000004)
T3F24 000:705.728   CPU_ReadMem(4 bytes @ 0x40023824)
T3F24 000:706.171   Data:  00 00 00 00
T3F24 000:706.190 - 0.486ms returns 0x04
T3F24 000:706.205   JLINK_ReadMemEx(0x40023830, 0x0008 Bytes, ..., Flags = 0x02000004)
T3F24 000:706.225   CPU_ReadMem(8 bytes @ 0x40023830)
T3F24 000:706.798   Data:  00 00 10 00 00 00 00 00
T3F24 000:706.817 - 0.617ms returns 0x08
T3F24 000:706.833   JLINK_ReadMemEx(0x40023838, 0x0004 Bytes, ..., Flags = 0x02000004)
T3F24 000:706.853   CPU_ReadMem(4 bytes @ 0x40023838)
T3F24 000:707.307   Data:  00 00 00 00
T3F24 000:707.338 - 0.512ms returns 0x04
T3F24 000:707.362   JLINK_ReadMemEx(0x40023840, 0x0004 Bytes, ..., Flags = 0x02000004)
T3F24 000:707.391   CPU_ReadMem(4 bytes @ 0x40023840)
T3F24 000:707.796   Data:  00 00 00 00
T3F24 000:707.816 - 0.460ms returns 0x04
T3F24 000:707.832   JLINK_ReadMemEx(0x40023844, 0x0004 Bytes, ..., Flags = 0x02000004)
T3F24 000:707.851   CPU_ReadMem(4 bytes @ 0x40023844)
T3F24 000:708.298   Data:  00 00 00 00
T3F24 000:708.317 - 0.490ms returns 0x04
T3F24 000:708.333   JLINK_ReadMemEx(0x40023850, 0x0008 Bytes, ..., Flags = 0x02000004)
T3F24 000:708.353   CPU_ReadMem(8 bytes @ 0x40023850)
T3F24 000:708.922   Data:  FF 91 67 7E F1 00 00 00
T3F24 000:708.941 - 0.612ms returns 0x08
T3F24 000:708.956   JLINK_ReadMemEx(0x40023858, 0x0004 Bytes, ..., Flags = 0x02000004)
T3F24 000:708.976   CPU_ReadMem(4 bytes @ 0x40023858)
T3F24 000:709.421   Data:  01 00 00 00
T3F24 000:709.440 - 0.489ms returns 0x04
T3F24 000:709.456   JLINK_ReadMemEx(0x40023860, 0x0004 Bytes, ..., Flags = 0x02000004)
T3F24 000:709.475   CPU_ReadMem(4 bytes @ 0x40023860)
T3F24 000:709.923   Data:  FF C9 FE 36
T3F24 000:709.942 - 0.491ms returns 0x04
T3F24 000:709.958   JLINK_ReadMemEx(0x40023864, 0x0004 Bytes, ..., Flags = 0x02000004)
T3F24 000:709.977   CPU_ReadMem(4 bytes @ 0x40023864)
T3F24 000:710.420   Data:  33 5F 07 00
T3F24 000:710.439 - 0.486ms returns 0x04
T3F24 000:710.455   JLINK_ReadMemEx(0x40023870, 0x0004 Bytes, ..., Flags = 0x02000004)
T3F24 000:710.474   CPU_ReadMem(4 bytes @ 0x40023870)
T3F24 000:710.923   Data:  00 00 00 00
T3F24 000:710.942 - 0.493ms returns 0x04
T3F24 000:710.958   JLINK_ReadMemEx(0x40023874, 0x0004 Bytes, ..., Flags = 0x02000004)
T3F24 000:710.978   CPU_ReadMem(4 bytes @ 0x40023874)
T3F24 000:711.429   Data:  00 00 00 1E
T3F24 000:711.449 - 0.496ms returns 0x04
T3F24 000:711.465   JLINK_ReadMemEx(0x40023880, 0x0004 Bytes, ..., Flags = 0x02000004)
T3F24 000:711.484   CPU_ReadMem(4 bytes @ 0x40023880)
T3F24 000:711.924   Data:  00 00 00 00
T3F24 000:711.944 - 0.484ms returns 0x04
T3F24 000:711.959   JLINK_ReadMemEx(0x40023884, 0x0004 Bytes, ..., Flags = 0x02000004)
T3F24 000:711.978   CPU_ReadMem(4 bytes @ 0x40023884)
T3F24 000:712.431   Data:  00 30 00 20
T3F24 000:712.451 - 0.496ms returns 0x04
T3F24 000:774.426   JLINK_ReadMemEx(0x40001000, 0x0004 Bytes, ..., Flags = 0x02000004)
T3F24 000:774.474   CPU_ReadMem(4 bytes @ 0x40001000)
T3F24 000:775.054   Data:  00 00 00 00
T3F24 000:775.078 - 0.659ms returns 0x04
T3F24 000:775.096   JLINK_ReadMemEx(0x40001004, 0x0004 Bytes, ..., Flags = 0x02000004)
T3F24 000:775.118   CPU_ReadMem(4 bytes @ 0x40001004)
T3F24 000:775.673   Data:  00 00 00 00
T3F24 000:775.692 - 0.601ms returns 0x04
T3F24 000:775.709   JLINK_ReadMemEx(0x4000100C, 0x0004 Bytes, ..., Flags = 0x02000004)
T3F24 000:775.806   CPU_ReadMem(4 bytes @ 0x4000100C)
T3F24 000:776.299   Data:  00 00 00 00
T3F24 000:776.319 - 0.615ms returns 0x04
T3F24 000:776.335   JLINK_ReadMemEx(0x40001010, 0x0004 Bytes, ..., Flags = 0x02000004)
T3F24 000:776.355   CPU_ReadMem(4 bytes @ 0x40001010)
T3F24 000:776.798   Data:  00 00 00 00
T3F24 000:776.817 - 0.487ms returns 0x04
T3F24 000:776.837   JLINK_ReadMemEx(0x40001024, 0x0008 Bytes, ..., Flags = 0x02000004)
T3F24 000:776.857   CPU_ReadMem(8 bytes @ 0x40001024)
T3F24 000:777.423   Data:  00 00 00 00 00 00 00 00
T3F24 000:777.442 - 0.610ms returns 0x08
T3F24 000:777.461   JLINK_ReadMemEx(0x4000102C, 0x0004 Bytes, ..., Flags = 0x02000004)
T3F24 000:777.481   CPU_ReadMem(4 bytes @ 0x4000102C)
T3F24 000:777.921   Data:  00 00 00 00
T3F24 000:777.940 - 0.484ms returns 0x04
T3F24 002:679.465   JLINK_ReadMemEx(0x0800020C, 0x003C Bytes, ..., Flags = 0x02000000)
T3F24 002:679.503    -- Read from C cache (60 bytes @ 0x0800020C)
T3F24 002:679.518   Data:  09 48 80 47 09 48 00 47 FE E7 FE E7 FE E7 FE E7 ...
T3F24 002:679.531 - 0.072ms returns 0x3C
T3F24 002:679.544   JLINK_ReadMemEx(0x0800020C, 0x0002 Bytes, ..., Flags = 0x02000000)
T3F24 002:679.559    -- Read from C cache (2 bytes @ 0x0800020C)
T3F24 002:679.572   Data:  09 48
T3F24 002:679.585 - 0.046ms returns 0x02
T3F24 002:679.598   JLINK_ReadMemEx(0x0800020E, 0x0002 Bytes, ..., Flags = 0x02000000)
T3F24 002:679.612    -- Read from C cache (2 bytes @ 0x0800020E)
T3F24 002:679.625   Data:  80 47
T3F24 002:679.638 - 0.045ms returns 0x02
T3F24 002:679.659   JLINK_ReadMemEx(0x0800020E, 0x0002 Bytes, ..., Flags = 0x02000000)
T3F24 002:679.675    -- Read from C cache (2 bytes @ 0x0800020E)
T3F24 002:679.688   Data:  80 47
T3F24 002:679.701 - 0.046ms returns 0x02
T3F24 002:679.713   JLINK_ReadMemEx(0x08000210, 0x003C Bytes, ..., Flags = 0x02000000)
T3F24 002:679.727    -- Read from C cache (60 bytes @ 0x08000210)
T3F24 002:679.742   Data:  09 48 00 47 FE E7 FE E7 FE E7 FE E7 FE E7 FE E7 ...
T3F24 002:679.754 - 0.046ms returns 0x3C
T3F24 002:679.766   JLINK_ReadMemEx(0x08000210, 0x0002 Bytes, ..., Flags = 0x02000000)
T3F24 002:679.780    -- Read from C cache (2 bytes @ 0x08000210)
T3F24 002:679.793   Data:  09 48
T3F24 002:679.806 - 0.045ms returns 0x02
T3F24 002:679.822   JLINK_ReadMemEx(0x08000210, 0x003C Bytes, ..., Flags = 0x02000000)
T3F24 002:679.837    -- Read from C cache (60 bytes @ 0x08000210)
T3F24 002:679.851   Data:  09 48 00 47 FE E7 FE E7 FE E7 FE E7 FE E7 FE E7 ...
T3F24 002:679.864 - 0.047ms returns 0x3C
T3F24 002:679.876   JLINK_ReadMemEx(0x08000210, 0x0002 Bytes, ..., Flags = 0x02000000)
T3F24 002:679.890    -- Read from C cache (2 bytes @ 0x08000210)
T3F24 002:679.903   Data:  09 48
T3F24 002:679.916 - 0.045ms returns 0x02
T3F24 002:679.928   JLINK_ReadMemEx(0x08000212, 0x0002 Bytes, ..., Flags = 0x02000000)
T3F24 002:679.942    -- Read from C cache (2 bytes @ 0x08000212)
T3F24 002:679.955   Data:  00 47
T3F24 002:679.968 - 0.045ms returns 0x02
T3EE0 003:074.448   JLINK_ReadMemEx(0x0800020C, 0x0002 Bytes, ..., Flags = 0x02000000)
T3EE0 003:074.485    -- Read from C cache (2 bytes @ 0x0800020C)
T3EE0 003:074.500   Data:  09 48
T3EE0 003:074.514 - 0.072ms returns 0x02
T3EE0 003:074.533   JLINK_SetBPEx(Addr = 0x0800030C, Type = 0xFFFFFFF2)
T3EE0 003:074.555 - 0.028ms returns 0x00000001
T3EE0 003:074.573 JLINK_Go()
T3EE0 003:075.078   CPU_ReadMem(4 bytes @ 0xE0001000)
T3EE0 003:075.694   CPU_WriteMem(4 bytes @ 0xE0002008)
T3EE0 003:075.717   CPU_WriteMem(4 bytes @ 0xE000200C)
T3EE0 003:075.731   CPU_WriteMem(4 bytes @ 0xE0002010)
T3EE0 003:075.745   CPU_WriteMem(4 bytes @ 0xE0002014)
T3EE0 003:075.759   CPU_WriteMem(4 bytes @ 0xE0002018)
T3EE0 003:075.773   CPU_WriteMem(4 bytes @ 0xE000201C)
T3EE0 003:076.935   CPU_WriteMem(4 bytes @ 0xE0001004)
T3EE0 003:077.931 - 3.369ms
T3EE0 003:178.708 JLINK_IsHalted()
T3EE0 003:181.082 - 2.388ms returns TRUE
T3EE0 003:181.109 JLINK_Halt()
T3EE0 003:181.120 - 0.016ms returns 0x00
T3EE0 003:181.137 JLINK_IsHalted()
T3EE0 003:181.149 - 0.017ms returns TRUE
T3EE0 003:181.161 JLINK_IsHalted()
T3EE0 003:181.174 - 0.018ms returns TRUE
T3EE0 003:181.186 JLINK_IsHalted()
T3EE0 003:181.214 - 0.040ms returns TRUE
T3EE0 003:181.241 JLINK_ReadReg(R15 (PC))
T3EE0 003:181.257 - 0.022ms returns 0x0800030C
T3EE0 003:181.270 JLINK_ReadReg(XPSR)
T3EE0 003:181.282 - 0.017ms returns 0x21000000
T3EE0 003:181.300 JLINK_ClrBPEx(BPHandle = 0x00000001)
T3EE0 003:181.313 - 0.037ms returns 0x00
T3EE0 003:181.355 JLINK_ReadMemU32(0xE000ED30, 0x0001 Items, ...)
T3EE0 003:181.376   CPU_ReadMem(4 bytes @ 0xE000ED30)
T3EE0 003:181.955   Data:  02 00 00 00
T3EE0 003:181.976 - 0.626ms returns 1
T3EE0 003:181.990 JLINK_ReadMemU32(0xE0001028, 0x0001 Items, ...)
T3EE0 003:182.007   CPU_ReadMem(4 bytes @ 0xE0001028)
T3EE0 003:182.433   Data:  00 00 00 00
T3EE0 003:182.460    - DWT_FUNC[0]
T3EE0 003:182.474 - 0.489ms returns 1
T3EE0 003:182.489 JLINK_ReadMemU32(0xE0001038, 0x0001 Items, ...)
T3EE0 003:182.506   CPU_ReadMem(4 bytes @ 0xE0001038)
T3EE0 003:183.060   Data:  00 02 00 00
T3EE0 003:183.080    - DWT_FUNC[1]
T3EE0 003:183.093 - 0.609ms returns 1
T3EE0 003:183.107 JLINK_ReadMemU32(0xE0001048, 0x0001 Items, ...)
T3EE0 003:183.123   CPU_ReadMem(4 bytes @ 0xE0001048)
T3EE0 003:183.686   Data:  00 00 00 00
T3EE0 003:183.707    - DWT_FUNC[2]
T3EE0 003:183.720 - 0.617ms returns 1
T3EE0 003:183.737 JLINK_ReadMemU32(0xE0001058, 0x0001 Items, ...)
T3EE0 003:183.753   CPU_ReadMem(4 bytes @ 0xE0001058)
T3EE0 003:184.311   Data:  00 00 00 00
T3EE0 003:184.335    - DWT_FUNC[3]
T3EE0 003:184.348 - 0.616ms returns 1
T3EE0 003:184.421 JLINK_ReadReg(R0)
T3EE0 003:184.439 - 0.024ms returns 0x20000060
T3EE0 003:184.453 JLINK_ReadReg(R1)
T3EE0 003:184.464 - 0.016ms returns 0x20000260
T3EE0 003:184.477 JLINK_ReadReg(R2)
T3EE0 003:184.512 - 0.046ms returns 0x20000260
T3EE0 003:184.532 JLINK_ReadReg(R3)
T3EE0 003:184.543 - 0.016ms returns 0x20000260
T3EE0 003:184.555 JLINK_ReadReg(R4)
T3EE0 003:184.566 - 0.016ms returns 0x00000000
T3EE0 003:184.579 JLINK_ReadReg(R5)
T3EE0 003:184.613 - 0.039ms returns 0x20000000
T3EE0 003:184.627 JLINK_ReadReg(R6)
T3EE0 003:184.656 - 0.040ms returns 0x00000000
T3EE0 003:184.701 JLINK_ReadReg(R7)
T3EE0 003:184.722 - 0.027ms returns 0x00000000
T3EE0 003:184.735 JLINK_ReadReg(R8)
T3EE0 003:184.747 - 0.016ms returns 0x00000000
T3EE0 003:184.759 JLINK_ReadReg(R9)
T3EE0 003:184.770 - 0.016ms returns 0x00000000
T3EE0 003:184.783 JLINK_ReadReg(R10)
T3EE0 003:184.794 - 0.016ms returns 0x080003D0
T3EE0 003:184.806 JLINK_ReadReg(R11)
T3EE0 003:184.850 - 0.050ms returns 0x00000000
T3EE0 003:184.865 JLINK_ReadReg(R12)
T3EE0 003:184.894 - 0.054ms returns 0x20000040
T3EE0 003:184.932 JLINK_ReadReg(R13 (SP))
T3EE0 003:184.945 - 0.019ms returns 0x20000660
T3EE0 003:184.958 JLINK_ReadReg(R14)
T3EE0 003:184.968 - 0.016ms returns 0x080001FB
T3EE0 003:184.980 JLINK_ReadReg(R15 (PC))
T3EE0 003:184.991 - 0.016ms returns 0x0800030C
T3EE0 003:185.003 JLINK_ReadReg(XPSR)
T3EE0 003:185.014 - 0.016ms returns 0x21000000
T3EE0 003:185.026 JLINK_ReadReg(MSP)
T3EE0 003:185.036 - 0.015ms returns 0x20000660
T3EE0 003:185.049 JLINK_ReadReg(PSP)
T3EE0 003:185.059 - 0.015ms returns 0x00000000
T3EE0 003:185.071 JLINK_ReadReg(CFBP)
T3EE0 003:185.082 - 0.015ms returns 0x04000000
T3EE0 003:185.094 JLINK_ReadReg(FPSCR)
T3EE0 003:188.326 - 3.245ms returns 0x03000000
T3EE0 003:188.350 JLINK_ReadReg(FPS0)
T3EE0 003:188.364 - 0.019ms returns 0x00000000
T3EE0 003:188.377 JLINK_ReadReg(FPS1)
T3EE0 003:188.388 - 0.016ms returns 0x00000000
T3EE0 003:188.401 JLINK_ReadReg(FPS2)
T3EE0 003:188.412 - 0.016ms returns 0x00000000
T3EE0 003:188.424 JLINK_ReadReg(FPS3)
T3EE0 003:188.435 - 0.016ms returns 0x00000000
T3EE0 003:188.447 JLINK_ReadReg(FPS4)
T3EE0 003:188.457 - 0.015ms returns 0x00000000
T3EE0 003:188.470 JLINK_ReadReg(FPS5)
T3EE0 003:188.480 - 0.016ms returns 0x00000000
T3EE0 003:188.492 JLINK_ReadReg(FPS6)
T3EE0 003:188.503 - 0.015ms returns 0x00000000
T3EE0 003:188.519 JLINK_ReadReg(FPS7)
T3EE0 003:188.533 - 0.019ms returns 0x00000000
T3EE0 003:188.546 JLINK_ReadReg(FPS8)
T3EE0 003:188.557 - 0.016ms returns 0x00000000
T3EE0 003:188.569 JLINK_ReadReg(FPS9)
T3EE0 003:188.580 - 0.016ms returns 0x00000000
T3EE0 003:188.592 JLINK_ReadReg(FPS10)
T3EE0 003:188.603 - 0.016ms returns 0x00000000
T3EE0 003:188.615 JLINK_ReadReg(FPS11)
T3EE0 003:188.625 - 0.015ms returns 0x00000000
T3EE0 003:188.638 JLINK_ReadReg(FPS12)
T3EE0 003:188.648 - 0.016ms returns 0x00000000
T3EE0 003:188.661 JLINK_ReadReg(FPS13)
T3EE0 003:188.671 - 0.015ms returns 0x00000000
T3EE0 003:188.683 JLINK_ReadReg(FPS14)
T3EE0 003:188.693 - 0.015ms returns 0x00000000
T3EE0 003:188.706 JLINK_ReadReg(FPS15)
T3EE0 003:188.717 - 0.016ms returns 0x00000000
T3EE0 003:188.729 JLINK_ReadReg(FPS16)
T3EE0 003:188.740 - 0.015ms returns 0x00000000
T3EE0 003:188.752 JLINK_ReadReg(FPS17)
T3EE0 003:188.763 - 0.040ms returns 0x00000000
T3EE0 003:188.804 JLINK_ReadReg(FPS18)
T3EE0 003:188.818 - 0.019ms returns 0x00000000
T3EE0 003:188.830 JLINK_ReadReg(FPS19)
T3EE0 003:188.841 - 0.016ms returns 0x00000000
T3EE0 003:188.853 JLINK_ReadReg(FPS20)
T3EE0 003:188.863 - 0.015ms returns 0x00000000
T3EE0 003:188.876 JLINK_ReadReg(FPS21)
T3EE0 003:188.886 - 0.016ms returns 0x00000000
T3EE0 003:188.899 JLINK_ReadReg(FPS22)
T3EE0 003:188.909 - 0.015ms returns 0x00000000
T3EE0 003:188.921 JLINK_ReadReg(FPS23)
T3EE0 003:188.932 - 0.015ms returns 0x00000000
T3EE0 003:188.944 JLINK_ReadReg(FPS24)
T3EE0 003:188.954 - 0.015ms returns 0x00000000
T3EE0 003:188.966 JLINK_ReadReg(FPS25)
T3EE0 003:188.977 - 0.015ms returns 0x00000000
T3EE0 003:188.989 JLINK_ReadReg(FPS26)
T3EE0 003:189.000 - 0.015ms returns 0x00000000
T3EE0 003:189.012 JLINK_ReadReg(FPS27)
T3EE0 003:189.022 - 0.015ms returns 0x00000000
T3EE0 003:189.034 JLINK_ReadReg(FPS28)
T3EE0 003:189.045 - 0.015ms returns 0x00000000
T3EE0 003:189.057 JLINK_ReadReg(FPS29)
T3EE0 003:189.067 - 0.015ms returns 0x00000000
T3EE0 003:189.079 JLINK_ReadReg(FPS30)
T3EE0 003:189.089 - 0.015ms returns 0x00000000
T3EE0 003:189.102 JLINK_ReadReg(FPS31)
T3EE0 003:189.112 - 0.015ms returns 0x00000000
T3F24 003:195.404 JLINK_ReadMemU32(0xE0001004, 0x0001 Items, ...)
T3F24 003:195.438   CPU_ReadMem(4 bytes @ 0xE0001004)
T3F24 003:196.067   Data:  D1 03 00 00
T3F24 003:196.088    - DWT_CYCCNT
T3F24 003:196.101 - 0.702ms returns 1
T3F24 003:196.405   JLINK_ReadMemEx(0x40001000, 0x0004 Bytes, ..., Flags = 0x02000004)
T3F24 003:196.432   CPU_ReadMem(4 bytes @ 0x40001000)
T3F24 003:197.071   Data:  00 00 00 00
T3F24 003:197.092 - 0.693ms returns 0x04
T3F24 003:197.109   JLINK_ReadMemEx(0x40001004, 0x0004 Bytes, ..., Flags = 0x02000004)
T3F24 003:197.130   CPU_ReadMem(4 bytes @ 0x40001004)
T3F24 003:197.711   Data:  00 00 00 00
T3F24 003:197.731 - 0.627ms returns 0x04
T3F24 003:197.748   JLINK_ReadMemEx(0x4000100C, 0x0004 Bytes, ..., Flags = 0x02000004)
T3F24 003:197.768   CPU_ReadMem(4 bytes @ 0x4000100C)
T3F24 003:198.326   Data:  00 00 00 00
T3F24 003:198.345 - 0.603ms returns 0x04
T3F24 003:198.362   JLINK_ReadMemEx(0x40001010, 0x0004 Bytes, ..., Flags = 0x02000004)
T3F24 003:198.382   CPU_ReadMem(4 bytes @ 0x40001010)
T3F24 003:198.836   Data:  00 00 00 00
T3F24 003:198.855 - 0.498ms returns 0x04
T3F24 003:198.872   JLINK_ReadMemEx(0x40001024, 0x0008 Bytes, ..., Flags = 0x02000004)
T3F24 003:198.892   CPU_ReadMem(8 bytes @ 0x40001024)
T3F24 003:199.436   Data:  00 00 00 00 00 00 00 00
T3F24 003:199.460 - 0.594ms returns 0x08
T3F24 003:199.479   JLINK_ReadMemEx(0x4000102C, 0x0004 Bytes, ..., Flags = 0x02000004)
T3F24 003:199.526   CPU_ReadMem(4 bytes @ 0x4000102C)
T3F24 003:200.061   Data:  00 00 00 00
T3F24 003:200.081 - 0.607ms returns 0x04
T3F24 003:200.348   JLINK_ReadMemEx(0x40023800, 0x0018 Bytes, ..., Flags = 0x02000004)
T3F24 003:200.375   CPU_ReadMem(24 bytes @ 0x40023800)
T3F24 003:200.935   Data:  83 70 00 00 10 30 00 24 00 00 00 00 00 00 00 00 ...
T3F24 003:200.986 - 0.648ms returns 0x18
T3F24 003:201.008   JLINK_ReadMemEx(0x40023818, 0x0004 Bytes, ..., Flags = 0x02000004)
T3F24 003:201.038   CPU_ReadMem(4 bytes @ 0x40023818)
T3F24 003:201.690   Data:  00 00 00 00
T3F24 003:201.710 - 0.707ms returns 0x04
T3F24 003:201.727   JLINK_ReadMemEx(0x40023820, 0x0004 Bytes, ..., Flags = 0x02000004)
T3F24 003:201.747   CPU_ReadMem(4 bytes @ 0x40023820)
T3F24 003:202.314   Data:  00 00 00 00
T3F24 003:202.360 - 0.644ms returns 0x04
T3F24 003:202.383   JLINK_ReadMemEx(0x40023824, 0x0004 Bytes, ..., Flags = 0x02000004)
T3F24 003:202.404   CPU_ReadMem(4 bytes @ 0x40023824)
T3F24 003:202.934   Data:  00 00 00 00
T3F24 003:202.957 - 0.579ms returns 0x04
T3F24 003:202.975   JLINK_ReadMemEx(0x40023830, 0x0008 Bytes, ..., Flags = 0x02000004)
T3F24 003:202.996   CPU_ReadMem(8 bytes @ 0x40023830)
T3F24 003:203.559   Data:  00 00 10 00 00 00 00 00
T3F24 003:203.595 - 0.626ms returns 0x08
T3F24 003:203.612   JLINK_ReadMemEx(0x40023838, 0x0004 Bytes, ..., Flags = 0x02000004)
T3F24 003:203.633   CPU_ReadMem(4 bytes @ 0x40023838)
T3F24 003:204.057   Data:  00 00 00 00
T3F24 003:204.079 - 0.472ms returns 0x04
T3F24 003:204.096   JLINK_ReadMemEx(0x40023840, 0x0004 Bytes, ..., Flags = 0x02000004)
T3F24 003:204.117   CPU_ReadMem(4 bytes @ 0x40023840)
T3F24 003:204.836   Data:  00 00 00 00
T3F24 003:204.864 - 0.774ms returns 0x04
T3F24 003:204.882   JLINK_ReadMemEx(0x40023844, 0x0004 Bytes, ..., Flags = 0x02000004)
T3F24 003:204.904   CPU_ReadMem(4 bytes @ 0x40023844)
T3F24 003:205.435   Data:  00 00 00 00
T3F24 003:205.456 - 0.579ms returns 0x04
T3F24 003:205.474   JLINK_ReadMemEx(0x40023850, 0x0008 Bytes, ..., Flags = 0x02000004)
T3F24 003:205.495   CPU_ReadMem(8 bytes @ 0x40023850)
T3F24 003:206.061   Data:  FF 91 67 7E F1 00 00 00
T3F24 003:206.080 - 0.612ms returns 0x08
T3F24 003:206.097   JLINK_ReadMemEx(0x40023858, 0x0004 Bytes, ..., Flags = 0x02000004)
T3F24 003:206.117   CPU_ReadMem(4 bytes @ 0x40023858)
T3F24 003:206.700   Data:  01 00 00 00
T3F24 003:206.722 - 0.631ms returns 0x04
T3F24 003:206.740   JLINK_ReadMemEx(0x40023860, 0x0004 Bytes, ..., Flags = 0x02000004)
T3F24 003:206.762   CPU_ReadMem(4 bytes @ 0x40023860)
T3F24 003:207.295   Data:  FF C9 FE 36
T3F24 003:207.315 - 0.581ms returns 0x04
T3F24 003:207.332   JLINK_ReadMemEx(0x40023864, 0x0004 Bytes, ..., Flags = 0x02000004)
T3F24 003:207.353   CPU_ReadMem(4 bytes @ 0x40023864)
T3F24 003:207.934   Data:  33 5F 07 00
T3F24 003:207.972 - 0.649ms returns 0x04
T3F24 003:207.992   JLINK_ReadMemEx(0x40023870, 0x0004 Bytes, ..., Flags = 0x02000004)
T3F24 003:208.014   CPU_ReadMem(4 bytes @ 0x40023870)
T3F24 003:208.434   Data:  00 00 00 00
T3F24 003:208.454 - 0.467ms returns 0x04
T3F24 003:208.471   JLINK_ReadMemEx(0x40023874, 0x0004 Bytes, ..., Flags = 0x02000004)
T3F24 003:208.492   CPU_ReadMem(4 bytes @ 0x40023874)
T3F24 003:208.945   Data:  00 00 00 1E
T3F24 003:208.965 - 0.499ms returns 0x04
T3F24 003:208.982   JLINK_ReadMemEx(0x40023880, 0x0004 Bytes, ..., Flags = 0x02000004)
T3F24 003:209.003   CPU_ReadMem(4 bytes @ 0x40023880)
T3F24 003:209.560   Data:  00 00 00 00
T3F24 003:209.582 - 0.605ms returns 0x04
T3F24 003:209.599   JLINK_ReadMemEx(0x40023884, 0x0004 Bytes, ..., Flags = 0x02000004)
T3F24 003:209.654   CPU_ReadMem(4 bytes @ 0x40023884)
T3F24 003:210.187   Data:  00 30 00 20
T3F24 003:210.210 - 0.617ms returns 0x04
T3F24 003:210.901   JLINK_ReadMemEx(0x40020400, 0x0014 Bytes, ..., Flags = 0x02000004)
T3F24 003:210.929   CPU_ReadMem(20 bytes @ 0x40020400)
T3F24 003:211.571   Data:  80 02 00 00 80 02 00 00 80 02 00 00 80 02 00 00 ...
T3F24 003:211.593 - 0.697ms returns 0x14
T3F24 003:211.610   JLINK_ReadMemEx(0x40020414, 0x0004 Bytes, ..., Flags = 0x02000004)
T3F24 003:211.631   CPU_ReadMem(4 bytes @ 0x40020414)
T3F24 003:212.189   Data:  80 02 00 00
T3F24 003:212.211 - 0.606ms returns 0x04
T3F24 003:212.228   JLINK_ReadMemEx(0x4002041C, 0x0008 Bytes, ..., Flags = 0x02000004)
T3F24 003:212.249   CPU_ReadMem(8 bytes @ 0x4002041C)
T3F24 003:212.839   Data:  80 02 00 00 80 02 00 00
T3F24 003:212.859 - 0.636ms returns 0x08
T3F24 003:212.875   JLINK_ReadMemEx(0x40020424, 0x0004 Bytes, ..., Flags = 0x02000004)
T3F24 003:212.904   CPU_ReadMem(4 bytes @ 0x40020424)
T3F24 003:213.464   Data:  80 02 00 00
T3F24 003:213.488 - 0.618ms returns 0x04
T3F24 003:216.670   JLINK_ReadMemEx(0x0800020C, 0x003C Bytes, ..., Flags = 0x02000000)
T3F24 003:216.703   CPU_ReadMem(128 bytes @ 0x08000200)
T3F24 003:218.226    -- Updating C cache (128 bytes @ 0x08000200)
T3F24 003:218.250    -- Read from C cache (60 bytes @ 0x0800020C)
T3F24 003:218.265   Data:  09 48 80 47 09 48 00 47 FE E7 FE E7 FE E7 FE E7 ...
T3F24 003:218.278 - 1.614ms returns 0x3C
T3F24 003:218.293   JLINK_ReadMemEx(0x0800020C, 0x0002 Bytes, ..., Flags = 0x02000000)
T3F24 003:218.309    -- Read from C cache (2 bytes @ 0x0800020C)
T3F24 003:218.323   Data:  09 48
T3F24 003:218.336 - 0.048ms returns 0x02
T3F24 003:218.350   JLINK_ReadMemEx(0x0800020E, 0x0002 Bytes, ..., Flags = 0x02000000)
T3F24 003:218.364    -- Read from C cache (2 bytes @ 0x0800020E)
T3F24 003:218.378   Data:  80 47
T3F24 003:218.391 - 0.046ms returns 0x02
T3F24 003:218.405   JLINK_ReadMemEx(0x0800020E, 0x0002 Bytes, ..., Flags = 0x02000000)
T3F24 003:218.420    -- Read from C cache (2 bytes @ 0x0800020E)
T3F24 003:218.433   Data:  80 47
T3F24 003:218.446 - 0.046ms returns 0x02
T3F24 003:218.458   JLINK_ReadMemEx(0x08000210, 0x003C Bytes, ..., Flags = 0x02000000)
T3F24 003:218.472    -- Read from C cache (60 bytes @ 0x08000210)
T3F24 003:218.487   Data:  09 48 00 47 FE E7 FE E7 FE E7 FE E7 FE E7 FE E7 ...
T3F24 003:218.499 - 0.046ms returns 0x3C
T3F24 003:218.511   JLINK_ReadMemEx(0x08000210, 0x0002 Bytes, ..., Flags = 0x02000000)
T3F24 003:218.525    -- Read from C cache (2 bytes @ 0x08000210)
T3F24 003:218.538   Data:  09 48
T3F24 003:218.551 - 0.045ms returns 0x02
T3F24 003:218.565   JLINK_ReadMemEx(0x08000210, 0x003C Bytes, ..., Flags = 0x02000000)
T3F24 003:218.579    -- Read from C cache (60 bytes @ 0x08000210)
T3F24 003:218.594   Data:  09 48 00 47 FE E7 FE E7 FE E7 FE E7 FE E7 FE E7 ...
T3F24 003:218.606 - 0.046ms returns 0x3C
T3F24 003:218.618   JLINK_ReadMemEx(0x08000210, 0x0002 Bytes, ..., Flags = 0x02000000)
T3F24 003:218.632    -- Read from C cache (2 bytes @ 0x08000210)
T3F24 003:218.646   Data:  09 48
T3F24 003:218.658 - 0.045ms returns 0x02
T3F24 003:218.670   JLINK_ReadMemEx(0x08000212, 0x0002 Bytes, ..., Flags = 0x02000000)
T3F24 003:218.685    -- Read from C cache (2 bytes @ 0x08000212)
T3F24 003:218.698   Data:  00 47
T3F24 003:218.711 - 0.045ms returns 0x02
T3F24 003:218.723   JLINK_ReadMemEx(0x08000212, 0x0002 Bytes, ..., Flags = 0x02000000)
T3F24 003:218.738    -- Read from C cache (2 bytes @ 0x08000212)
T3F24 003:218.751   Data:  00 47
T3F24 003:218.764 - 0.046ms returns 0x02
T3F24 003:218.776   JLINK_ReadMemEx(0x08000214, 0x003C Bytes, ..., Flags = 0x02000000)
T3F24 003:218.791    -- Read from C cache (60 bytes @ 0x08000214)
T3F24 003:218.805   Data:  FE E7 FE E7 FE E7 FE E7 FE E7 FE E7 FE E7 FE E7 ...
T3F24 003:218.818 - 0.046ms returns 0x3C
T3F24 003:218.829   JLINK_ReadMemEx(0x08000214, 0x0002 Bytes, ..., Flags = 0x02000000)
T3F24 003:218.843    -- Read from C cache (2 bytes @ 0x08000214)
T3F24 003:218.857   Data:  FE E7
T3F24 003:218.870 - 0.045ms returns 0x02
T3F24 003:218.883   JLINK_ReadMemEx(0x08000214, 0x003C Bytes, ..., Flags = 0x02000000)
T3F24 003:218.897    -- Read from C cache (60 bytes @ 0x08000214)
T3F24 003:218.912   Data:  FE E7 FE E7 FE E7 FE E7 FE E7 FE E7 FE E7 FE E7 ...
T3F24 003:218.925 - 0.046ms returns 0x3C
T3F24 003:218.936   JLINK_ReadMemEx(0x08000214, 0x0002 Bytes, ..., Flags = 0x02000000)
T3F24 003:218.950    -- Read from C cache (2 bytes @ 0x08000214)
T3F24 003:218.963   Data:  FE E7
T3F24 003:218.976 - 0.045ms returns 0x02
T3F24 003:218.988   JLINK_ReadMemEx(0x08000216, 0x0002 Bytes, ..., Flags = 0x02000000)
T3F24 003:219.002    -- Read from C cache (2 bytes @ 0x08000216)
T3F24 003:219.016   Data:  FE E7
T3F24 003:219.028 - 0.045ms returns 0x02
T3F24 003:219.041   JLINK_ReadMemEx(0x08000216, 0x0002 Bytes, ..., Flags = 0x02000000)
T3F24 003:219.062    -- Read from C cache (2 bytes @ 0x08000216)
T3F24 003:219.075   Data:  FE E7
T3F24 003:219.088 - 0.052ms returns 0x02
T3F24 003:219.100   JLINK_ReadMemEx(0x08000218, 0x003C Bytes, ..., Flags = 0x02000000)
T3F24 003:219.114    -- Read from C cache (60 bytes @ 0x08000218)
T3F24 003:219.129   Data:  FE E7 FE E7 FE E7 FE E7 FE E7 FE E7 FE E7 FE E7 ...
T3F24 003:219.141 - 0.046ms returns 0x3C
T3F24 003:219.153   JLINK_ReadMemEx(0x08000218, 0x0002 Bytes, ..., Flags = 0x02000000)
T3F24 003:219.167    -- Read from C cache (2 bytes @ 0x08000218)
T3F24 003:219.180   Data:  FE E7
T3F24 003:219.193 - 0.045ms returns 0x02
T3F24 003:219.206   JLINK_ReadMemEx(0x08000218, 0x003C Bytes, ..., Flags = 0x02000000)
T3F24 003:219.220    -- Read from C cache (60 bytes @ 0x08000218)
T3F24 003:219.234   Data:  FE E7 FE E7 FE E7 FE E7 FE E7 FE E7 FE E7 FE E7 ...
T3F24 003:219.247 - 0.046ms returns 0x3C
T3F24 003:219.259   JLINK_ReadMemEx(0x08000218, 0x0002 Bytes, ..., Flags = 0x02000000)
T3F24 003:219.273    -- Read from C cache (2 bytes @ 0x08000218)
T3F24 003:219.286   Data:  FE E7
T3F24 003:219.299 - 0.045ms returns 0x02
T3F24 003:219.311   JLINK_ReadMemEx(0x0800021A, 0x0002 Bytes, ..., Flags = 0x02000000)
T3F24 003:219.325    -- Read from C cache (2 bytes @ 0x0800021A)
T3F24 003:219.364   Data:  FE E7
T3F24 003:219.379 - 0.073ms returns 0x02
T3F24 003:219.396   JLINK_ReadMemEx(0x0800021A, 0x0002 Bytes, ..., Flags = 0x02000000)
T3F24 003:219.413    -- Read from C cache (2 bytes @ 0x0800021A)
T3F24 003:219.427   Data:  FE E7
T3F24 003:219.440 - 0.070ms returns 0x02
T3F24 003:219.479   JLINK_ReadMemEx(0x0800021C, 0x003C Bytes, ..., Flags = 0x02000000)
T3F24 003:219.495    -- Read from C cache (60 bytes @ 0x0800021C)
T3F24 003:219.510   Data:  FE E7 FE E7 FE E7 FE E7 FE E7 FE E7 04 48 05 49 ...
T3F24 003:219.523 - 0.049ms returns 0x3C
T3F24 003:219.535   JLINK_ReadMemEx(0x0800021C, 0x0002 Bytes, ..., Flags = 0x02000000)
T3F24 003:219.593    -- Read from C cache (2 bytes @ 0x0800021C)
T3F24 003:219.608   Data:  FE E7
T3F24 003:219.621 - 0.090ms returns 0x02
T3F24 003:219.636   JLINK_ReadMemEx(0x0800021C, 0x003C Bytes, ..., Flags = 0x02000000)
T3F24 003:219.650    -- Read from C cache (60 bytes @ 0x0800021C)
T3F24 003:219.668   Data:  FE E7 FE E7 FE E7 FE E7 FE E7 FE E7 04 48 05 49 ...
T3F24 003:219.686 - 0.057ms returns 0x3C
T3F24 003:219.703   JLINK_ReadMemEx(0x0800021C, 0x0002 Bytes, ..., Flags = 0x02000000)
T3F24 003:219.731    -- Read from C cache (2 bytes @ 0x0800021C)
T3F24 003:219.757   Data:  FE E7
T3F24 003:219.813 - 0.116ms returns 0x02
T3F24 003:219.827   JLINK_ReadMemEx(0x0800021E, 0x0002 Bytes, ..., Flags = 0x02000000)
T3F24 003:219.843    -- Read from C cache (2 bytes @ 0x0800021E)
T3F24 003:219.856   Data:  FE E7
T3F24 003:219.909 - 0.096ms returns 0x02
T3F24 003:219.936   JLINK_ReadMemEx(0x0800021E, 0x0002 Bytes, ..., Flags = 0x02000000)
T3F24 003:219.953    -- Read from C cache (2 bytes @ 0x0800021E)
T3F24 003:219.967   Data:  FE E7
T3F24 003:219.980 - 0.050ms returns 0x02
T3F24 003:219.993   JLINK_ReadMemEx(0x08000220, 0x003C Bytes, ..., Flags = 0x02000000)
T3F24 003:220.032    -- Read from C cache (60 bytes @ 0x08000220)
T3F24 003:220.052   Data:  FE E7 FE E7 FE E7 FE E7 04 48 05 49 05 4A 06 4B ...
T3F24 003:220.065 - 0.076ms returns 0x3C
T3F24 003:220.078   JLINK_ReadMemEx(0x08000220, 0x0002 Bytes, ..., Flags = 0x02000000)
T3F24 003:220.093    -- Read from C cache (2 bytes @ 0x08000220)
T3F24 003:220.129   Data:  FE E7
T3F24 003:220.143 - 0.069ms returns 0x02
T3F24 003:220.158   JLINK_ReadMemEx(0x08000220, 0x003C Bytes, ..., Flags = 0x02000000)
T3F24 003:220.174    -- Read from C cache (60 bytes @ 0x08000220)
T3F24 003:220.190   Data:  FE E7 FE E7 FE E7 FE E7 04 48 05 49 05 4A 06 4B ...
T3F24 003:220.203 - 0.050ms returns 0x3C
T3F24 003:220.219   JLINK_ReadMemEx(0x08000220, 0x0002 Bytes, ..., Flags = 0x02000000)
T3F24 003:220.262    -- Read from C cache (2 bytes @ 0x08000220)
T3F24 003:220.277   Data:  FE E7
T3F24 003:220.318 - 0.135ms returns 0x02
T3F24 003:220.374   JLINK_ReadMemEx(0x08000222, 0x0002 Bytes, ..., Flags = 0x02000000)
T3F24 003:220.391    -- Read from C cache (2 bytes @ 0x08000222)
T3F24 003:220.406   Data:  FE E7
T3F24 003:220.419 - 0.050ms returns 0x02
T3F24 003:220.433   JLINK_ReadMemEx(0x08000222, 0x0002 Bytes, ..., Flags = 0x02000000)
T3F24 003:220.447    -- Read from C cache (2 bytes @ 0x08000222)
T3F24 003:220.461   Data:  FE E7
T3F24 003:220.474 - 0.046ms returns 0x02
T3F24 003:220.486   JLINK_ReadMemEx(0x08000224, 0x003C Bytes, ..., Flags = 0x02000000)
T3F24 003:220.501    -- Read from C cache (60 bytes @ 0x08000224)
T3F24 003:220.515   Data:  FE E7 FE E7 04 48 05 49 05 4A 06 4B 70 47 00 00 ...
T3F24 003:220.528 - 0.046ms returns 0x3C
T3F24 003:220.540   JLINK_ReadMemEx(0x08000224, 0x0002 Bytes, ..., Flags = 0x02000000)
T3F24 003:220.554    -- Read from C cache (2 bytes @ 0x08000224)
T3F24 003:220.567   Data:  FE E7
T3F24 003:220.580 - 0.045ms returns 0x02
T3F24 003:220.592   JLINK_ReadMemEx(0x08000224, 0x003C Bytes, ..., Flags = 0x02000000)
T3F24 003:220.607    -- Read from C cache (60 bytes @ 0x08000224)
T3F24 003:220.621   Data:  FE E7 FE E7 04 48 05 49 05 4A 06 4B 70 47 00 00 ...
T3F24 003:220.634 - 0.046ms returns 0x3C
T3F24 003:220.646   JLINK_ReadMemEx(0x08000224, 0x0002 Bytes, ..., Flags = 0x02000000)
T3F24 003:220.667    -- Read from C cache (2 bytes @ 0x08000224)
T3F24 003:220.680   Data:  FE E7
T3F24 003:220.693 - 0.052ms returns 0x02
T3F24 003:220.705   JLINK_ReadMemEx(0x08000226, 0x0002 Bytes, ..., Flags = 0x02000000)
T3F24 003:220.719    -- Read from C cache (2 bytes @ 0x08000226)
T3F24 003:220.733   Data:  FE E7
T3F24 003:220.745 - 0.045ms returns 0x02
T3F24 003:220.758   JLINK_ReadMemEx(0x08000226, 0x0002 Bytes, ..., Flags = 0x02000000)
T3F24 003:220.772    -- Read from C cache (2 bytes @ 0x08000226)
T3F24 003:220.786   Data:  FE E7
T3F24 003:220.798 - 0.045ms returns 0x02
T3F24 003:220.810   JLINK_ReadMemEx(0x08000228, 0x003C Bytes, ..., Flags = 0x02000000)
T3F24 003:220.825    -- Read from C cache (60 bytes @ 0x08000228)
T3F24 003:220.839   Data:  04 48 05 49 05 4A 06 4B 70 47 00 00 C9 02 00 08 ...
T3F24 003:220.852 - 0.046ms returns 0x3C
T3F24 003:220.863   JLINK_ReadMemEx(0x08000228, 0x0002 Bytes, ..., Flags = 0x02000000)
T3F24 003:220.877    -- Read from C cache (2 bytes @ 0x08000228)
T3F24 003:220.891   Data:  04 48
T3F24 003:220.903 - 0.045ms returns 0x02
T3F24 003:220.916   JLINK_ReadMemEx(0x08000228, 0x003C Bytes, ..., Flags = 0x02000000)
T3F24 003:220.930    -- Read from C cache (60 bytes @ 0x08000228)
T3F24 003:220.945   Data:  04 48 05 49 05 4A 06 4B 70 47 00 00 C9 02 00 08 ...
T3F24 003:220.959 - 0.048ms returns 0x3C
T3F24 003:220.971   JLINK_ReadMemEx(0x08000228, 0x0002 Bytes, ..., Flags = 0x02000000)
T3F24 003:220.989    -- Read from C cache (2 bytes @ 0x08000228)
T3F24 003:221.020   Data:  04 48
T3F24 003:221.037 - 0.071ms returns 0x02
T3F24 003:221.051   JLINK_ReadMemEx(0x0800022A, 0x0002 Bytes, ..., Flags = 0x02000000)
T3F24 003:221.066    -- Read from C cache (2 bytes @ 0x0800022A)
T3F24 003:221.104   Data:  05 49
T3F24 003:221.117 - 0.071ms returns 0x02
T3F24 003:221.131   JLINK_ReadMemEx(0x0800022A, 0x0002 Bytes, ..., Flags = 0x02000000)
T3F24 003:221.146    -- Read from C cache (2 bytes @ 0x0800022A)
T3F24 003:221.160   Data:  05 49
T3F24 003:221.207 - 0.081ms returns 0x02
T3F24 003:221.221   JLINK_ReadMemEx(0x0800022C, 0x003C Bytes, ..., Flags = 0x02000000)
T3F24 003:221.236    -- Read from C cache (60 bytes @ 0x0800022C)
T3F24 003:221.251   Data:  05 4A 06 4B 70 47 00 00 C9 02 00 08 89 01 00 08 ...
T3F24 003:221.263 - 0.047ms returns 0x3C
T3F24 003:221.275   JLINK_ReadMemEx(0x0800022C, 0x0002 Bytes, ..., Flags = 0x02000000)
T3F24 003:221.289    -- Read from C cache (2 bytes @ 0x0800022C)
T3F24 003:221.302   Data:  05 4A
T3F24 003:221.315 - 0.044ms returns 0x02
T3F24 003:221.327   JLINK_ReadMemEx(0x0800022C, 0x003C Bytes, ..., Flags = 0x02000000)
T3F24 003:221.343    -- Read from C cache (60 bytes @ 0x0800022C)
T3F24 003:221.363   Data:  05 4A 06 4B 70 47 00 00 C9 02 00 08 89 01 00 08 ...
T3F24 003:221.376 - 0.053ms returns 0x3C
T3F24 003:221.387   JLINK_ReadMemEx(0x0800022C, 0x0002 Bytes, ..., Flags = 0x02000000)
T3F24 003:221.401    -- Read from C cache (2 bytes @ 0x0800022C)
T3F24 003:221.414   Data:  05 4A
T3F24 003:221.427 - 0.044ms returns 0x02
T3F24 003:221.439   JLINK_ReadMemEx(0x0800022E, 0x0002 Bytes, ..., Flags = 0x02000000)
T3F24 003:221.454    -- Read from C cache (2 bytes @ 0x0800022E)
T3F24 003:221.468   Data:  06 4B
T3F24 003:221.481 - 0.046ms returns 0x02
T3F24 003:221.493   JLINK_ReadMemEx(0x0800022E, 0x0002 Bytes, ..., Flags = 0x02000000)
T3F24 003:221.508    -- Read from C cache (2 bytes @ 0x0800022E)
T3F24 003:221.521   Data:  06 4B
T3F24 003:221.534 - 0.045ms returns 0x02
T3F24 003:221.546   JLINK_ReadMemEx(0x08000230, 0x003C Bytes, ..., Flags = 0x02000000)
T3F24 003:221.560    -- Read from C cache (60 bytes @ 0x08000230)
T3F24 003:221.610   Data:  70 47 00 00 C9 02 00 08 89 01 00 08 60 00 00 20 ...
T3F24 003:221.623 - 0.082ms returns 0x3C
T3F24 003:221.636   JLINK_ReadMemEx(0x08000230, 0x0002 Bytes, ..., Flags = 0x02000000)
T3F24 003:221.651    -- Read from C cache (2 bytes @ 0x08000230)
T3F24 003:221.664   Data:  70 47
T3F24 003:221.677 - 0.046ms returns 0x02
T3F24 003:221.690   JLINK_ReadMemEx(0x08000230, 0x003C Bytes, ..., Flags = 0x02000000)
T3F24 003:221.705    -- Read from C cache (60 bytes @ 0x08000230)
T3F24 003:221.719   Data:  70 47 00 00 C9 02 00 08 89 01 00 08 60 00 00 20 ...
T3F24 003:221.732 - 0.046ms returns 0x3C
T3F24 003:221.744   JLINK_ReadMemEx(0x08000230, 0x0002 Bytes, ..., Flags = 0x02000000)
T3F24 003:221.758    -- Read from C cache (2 bytes @ 0x08000230)
